
**** 08/13/18 18:20:33 *********** Evaluation PSpice (Nov 1999) **************

 * C:\Users\mathias\Desktop\PED\LISTA2\ex1\ex1.sch


 ****     CIRCUIT DESCRIPTION


******************************************************************************




* Schematics Version 9.1 - Web Update 1
* Mon Aug 13 18:20:30 2018



** Analysis setup **
.DC LIN V_V1 5 10 1 
.OP 
.LIB "C:\Users\mathias\Desktop\PED\LISTA2\ex1\ex1.lib"
.STMLIB "ex1.stl"


* From [PSPICE NETLIST] section of pspiceev.ini:
.lib "nom.lib"

.INC "ex1.net"

**** INCLUDING ex1.net ****
* Schematics Netlist *



V_V1         VDD 0 5V
M_M2         $N_0002 $N_0001 0 0 MbreakN-X1           
I_IREF         VDD $N_0001 DC 1mA  
M_M4         $N_0002 $N_0002 VDD VDD MbreakP-X           
M_M5         0 $N_0002 VDD VDD MbreakP-X1           
M_M3         VDD $N_0001 0 0 MbreakN-X2           
M_M1         $N_0001 $N_0001 0 0 MbreakN-X           

**** RESUMING ex1.cir ****
.INC "ex1.als"



**** INCLUDING ex1.als ****
* Schematics Aliases *

.ALIASES
V_V1            V1(+=VDD -=0 )
M_M2            M2(d=$N_0002 g=$N_0001 s=0 b=0 )
I_IREF          IREF(+=VDD -=$N_0001 )
M_M4            M4(d=$N_0002 g=$N_0002 s=VDD b=VDD )
M_M5            M5(d=0 g=$N_0002 s=VDD b=VDD )
M_M3            M3(d=VDD g=$N_0001 s=0 b=0 )
M_M1            M1(d=$N_0001 g=$N_0001 s=0 b=0 )
_    _(VDD=VDD)
.ENDALIASES


**** RESUMING ex1.cir ****
.probe


.END

**** 08/13/18 18:20:33 *********** Evaluation PSpice (Nov 1999) **************

 * C:\Users\mathias\Desktop\PED\LISTA2\ex1\ex1.sch


 ****     MOSFET MODEL PARAMETERS


******************************************************************************




               MbreakN-X1      MbreakP-X       MbreakP-X1      MbreakN-X2      
               NMOS            PMOS            PMOS            NMOS            
       LEVEL    1               1               1               1            
           L    1.000000E-06    1.000000E-06    1.000000E-06    1.000000E-06 
           W   22.000000E-06   10.000000E-06   22.000000E-06   13.000000E-06 
         VTO     .7             -.7             -.7              .7          
          KP  100.000000E-06  100.000000E-06  100.000000E-06  100.000000E-06 
       GAMMA    0               0               0               0            
         PHI     .6              .6              .6              .6          
      LAMBDA    0               0               0               0            
          IS   10.000000E-15   10.000000E-15   10.000000E-15   10.000000E-15 
          JS    0               0               0               0            
          PB     .8              .8              .8              .8          
        PBSW     .8              .8              .8              .8          
          CJ    0               0               0               0            
        CJSW    0               0               0               0            
        CGSO    0               0               0               0            
        CGDO    0               0               0               0            
        CGBO    0               0               0               0            
         TOX    0               0               0               0            
          XJ    0               0               0               0            
       UCRIT   10.000000E+03   10.000000E+03   10.000000E+03   10.000000E+03 
      DIOMOD    1               1               1               1            
         VFB    0               0               0               0            
        LETA    0               0               0               0            
        WETA    0               0               0               0            
          U0    0               0               0               0            
        TEMP    0               0               0               0            
         VDD    0               0               0               0            
       XPART    0               0               0               0            


               MbreakN-X       
               NMOS            
       LEVEL    1            
           L    1.000000E-06 
           W   10.000000E-06 
         VTO     .7          
          KP  100.000000E-06 
       GAMMA    0            
         PHI     .6          
      LAMBDA    0            
          IS   10.000000E-15 
          JS    0            
          PB     .8          
        PBSW     .8          
          CJ    0            
        CJSW    0            
        CGSO    0            
        CGDO    0            
        CGBO    0            
         TOX    0            
          XJ    0            
       UCRIT   10.000000E+03 
      DIOMOD    1            
         VFB    0            
        LETA    0            
        WETA    0            
          U0    0            
        TEMP    0            
         VDD    0            
       XPART    0            


**** 08/13/18 18:20:33 *********** Evaluation PSpice (Nov 1999) **************

 * C:\Users\mathias\Desktop\PED\LISTA2\ex1\ex1.sch


 ****     SMALL SIGNAL BIAS SOLUTION       TEMPERATURE =   27.000 DEG C


******************************************************************************



 NODE   VOLTAGE     NODE   VOLTAGE     NODE   VOLTAGE     NODE   VOLTAGE


(  VDD)    5.0000  ($N_0001)    2.1142                   ($N_0002)    2.2024    




    VOLTAGE SOURCE CURRENTS
    NAME         CURRENT

    V_V1        -9.340E-03

    TOTAL POWER DISSIPATION   4.67E-02  WATTS


**** 08/13/18 18:20:33 *********** Evaluation PSpice (Nov 1999) **************

 * C:\Users\mathias\Desktop\PED\LISTA2\ex1\ex1.sch


 ****     OPERATING POINT INFORMATION      TEMPERATURE =   27.000 DEG C


******************************************************************************






**** MOSFETS


NAME         M_M2        M_M4        M_M5        M_M3        M_M1      
MODEL        MbreakN-X1  MbreakP-X   MbreakP-X1  MbreakN-X2  MbreakN-X 
ID           2.20E-03   -2.20E-03   -4.84E-03    1.30E-03    1.00E-03 
VGS          2.11E+00   -2.80E+00   -2.80E+00    2.11E+00    2.11E+00 
VDS          2.20E+00   -2.80E+00   -5.00E+00    5.00E+00    2.11E+00 
VBS          0.00E+00    0.00E+00    0.00E+00    0.00E+00    0.00E+00 
VTH          7.00E-01   -7.00E-01   -7.00E-01    7.00E-01    7.00E-01 
VDSAT        1.41E+00   -2.10E+00   -2.10E+00    1.41E+00    1.41E+00 
Lin0/Sat1   -1.00E+00   -1.00E+00   -1.00E+00   -1.00E+00   -1.00E+00 
if          -1.00E+00   -1.00E+00   -1.00E+00   -1.00E+00   -1.00E+00 
ir          -1.00E+00   -1.00E+00   -1.00E+00   -1.00E+00   -1.00E+00 
TAU         -1.00E+00   -1.00E+00   -1.00E+00   -1.00E+00   -1.00E+00 
GM           3.11E-03    2.10E-03    4.61E-03    1.84E-03    1.41E-03 
GDS          0.00E+00    0.00E+00    0.00E+00    0.00E+00    0.00E+00 
GMB          0.00E+00    0.00E+00    0.00E+00    0.00E+00    0.00E+00 
CBD          0.00E+00    0.00E+00    0.00E+00    0.00E+00    0.00E+00 
CBS          0.00E+00    0.00E+00    0.00E+00    0.00E+00    0.00E+00 
CGSOV        0.00E+00    0.00E+00    0.00E+00    0.00E+00    0.00E+00 
CGDOV        0.00E+00    0.00E+00    0.00E+00    0.00E+00    0.00E+00 
CGBOV        0.00E+00    0.00E+00    0.00E+00    0.00E+00    0.00E+00 
CGS          0.00E+00    0.00E+00    0.00E+00    0.00E+00    0.00E+00 
CGD          0.00E+00    0.00E+00    0.00E+00    0.00E+00    0.00E+00 
CGB          0.00E+00    0.00E+00    0.00E+00    0.00E+00    0.00E+00 

          JOB CONCLUDED

          TOTAL JOB TIME             .02
