
**** 08/13/18 17:30:49 *********** Evaluation PSpice (Nov 1999) **************

 * C:\Users\mathias\Desktop\PED\LISTA1\ex3\ex3.sch


 ****     CIRCUIT DESCRIPTION


******************************************************************************




* Schematics Version 9.1 - Web Update 1
* Mon Aug 13 17:30:45 2018



** Analysis setup **
.ac DEC 100 0.1 1e9
.tran 0 10m 0 0.01m
.LIB "C:\Users\mathias\Desktop\PED\LISTA1\ex3\ex3.lib"


* From [PSPICE NETLIST] section of pspiceev.ini:
.lib "nom.lib"

.INC "ex3.net"

**** INCLUDING ex3.net ****
* Schematics Netlist *



R_RG1         $N_0002 $N_0001  10Meg  
R_RG2         0 $N_0002  1Meg  
M_M1         $N_0003 $N_0002 0 0 NMOS0P5           
C_Co         $N_0003 Vo  10uF  
C_Ci         $N_0004 $N_0002  10uF  
R_Rsig         Vi $N_0004  10k  
V_VDD         $N_0001 0 10V
V_Vi         Vi 0 DC 0 AC 0.1
+SIN 0 0.1 1k 0 0 0
R_RD         $N_0003 $N_0001  10k  
R_RL         0 Vo  10k  

**** RESUMING ex3.cir ****
.INC "ex3.als"



**** INCLUDING ex3.als ****
* Schematics Aliases *

.ALIASES
R_RG1           RG1(1=$N_0002 2=$N_0001 )
R_RG2           RG2(1=0 2=$N_0002 )
M_M1            M1(d=$N_0003 g=$N_0002 s=0 b=0 )
C_Co            Co(1=$N_0003 2=Vo )
C_Ci            Ci(1=$N_0004 2=$N_0002 )
R_Rsig          Rsig(1=Vi 2=$N_0004 )
V_VDD           VDD(+=$N_0001 -=0 )
V_Vi            Vi(+=Vi -=0 )
R_RD            RD(1=$N_0003 2=$N_0001 )
R_RL            RL(1=0 2=Vo )
_    _(Vo=Vo)
_    _(Vi=Vi)
.ENDALIASES


**** RESUMING ex3.cir ****
.probe


.END

**** 08/13/18 17:30:49 *********** Evaluation PSpice (Nov 1999) **************

 * C:\Users\mathias\Desktop\PED\LISTA1\ex3\ex3.sch


 ****     MOSFET MODEL PARAMETERS


******************************************************************************




               NMOS0P5         
               NMOS            
       LEVEL    1            
           L  440.000000E-09 
           W   23.300000E-06 
          LD   80.000000E-09 
         VTO     .7          
          KP  170.100000E-06 
       GAMMA     .5          
         PHI     .8          
      LAMBDA    0            
          IS   10.000000E-15 
          JS   10.000000E-06 
          PB     .9          
        PBSW     .9          
          CJ  570.000000E-06 
        CJSW  120.000000E-09 
        MJSW     .4          
        CGSO  400.000000E-12 
        CGDO  400.000000E-12 
        CGBO  380.000000E-09 
         TOX    9.500000E-09 
          XJ    0            
          UO  460            
       UCRIT   10.000000E+03 
      DIOMOD    1            
         VFB    0            
        LETA    0            
        WETA    0            
          U0    0            
        TEMP    0            
         VDD    0            
       XPART    0            


**** 08/13/18 17:30:49 *********** Evaluation PSpice (Nov 1999) **************

 * C:\Users\mathias\Desktop\PED\LISTA1\ex3\ex3.sch


 ****     SMALL SIGNAL BIAS SOLUTION       TEMPERATURE =   27.000 DEG C


******************************************************************************



 NODE   VOLTAGE     NODE   VOLTAGE     NODE   VOLTAGE     NODE   VOLTAGE


(   Vi)    0.0000  (   Vo)    0.0000  ($N_0001)   10.0000                       

($N_0002)     .9091                   ($N_0003)    6.9058                       

($N_0004)    0.0000                   




    VOLTAGE SOURCE CURRENTS
    NAME         CURRENT

    V_VDD       -3.103E-04
    V_Vi         0.000E+00

    TOTAL POWER DISSIPATION   3.10E-03  WATTS


**** 08/13/18 17:30:49 *********** Evaluation PSpice (Nov 1999) **************

 * C:\Users\mathias\Desktop\PED\LISTA1\ex3\ex3.sch


 ****     INITIAL TRANSIENT SOLUTION       TEMPERATURE =   27.000 DEG C


******************************************************************************



 NODE   VOLTAGE     NODE   VOLTAGE     NODE   VOLTAGE     NODE   VOLTAGE


(   Vi)    0.0000  (   Vo)    0.0000  ($N_0001)   10.0000                       

($N_0002)     .9091                   ($N_0003)    6.9058                       

($N_0004)    0.0000                   




    VOLTAGE SOURCE CURRENTS
    NAME         CURRENT

    V_VDD       -3.103E-04
    V_Vi         0.000E+00

    TOTAL POWER DISSIPATION   3.10E-03  WATTS



          JOB CONCLUDED

          TOTAL JOB TIME             .11
