
**** 09/14/18 11:04:57 *********** Evaluation PSpice (Nov 1999) **************

 * C:\Users\mathias\Desktop\PED\LISTA1\sandbox\sandbox.sch


 ****     CIRCUIT DESCRIPTION


******************************************************************************




* Schematics Version 9.1 - Web Update 1
* Fri Sep 14 11:04:54 2018



** Analysis setup **
.ac DEC 100 10 1Ghz
.LIB "C:\Users\mathias\Desktop\PED\LISTA1\sandbox\sandbox.lib"


* From [PSPICE NETLIST] section of pspiceev.ini:
.lib "nom.lib"

.INC "sandbox.net"

**** INCLUDING sandbox.net ****
* Schematics Netlist *



V_V1         $N_0001 0 5V
R_R2         Vout $N_0001  10k  
C_C2         0 Vout  80p  
R_R1         Vin $N_0002  5k  
C_C1         0 $N_0002  25p  
V_V4         Vin 0 DC 0V AC 1V 
M_M1         Vout $N_0003 $N_0002 0 MbreakN-X           
V_V2         $N_0003 0 1.8V

**** RESUMING sandbox.cir ****
.INC "sandbox.als"



**** INCLUDING sandbox.als ****
* Schematics Aliases *

.ALIASES
V_V1            V1(+=$N_0001 -=0 )
R_R2            R2(1=Vout 2=$N_0001 )
C_C2            C2(1=0 2=Vout )
R_R1            R1(1=Vin 2=$N_0002 )
C_C1            C1(1=0 2=$N_0002 )
V_V4            V4(+=Vin -=0 )
M_M1            M1(d=Vout g=$N_0003 s=$N_0002 b=0 )
V_V2            V2(+=$N_0003 -=0 )
_    _(Vout=Vout)
_    _(Vin=Vin)
.ENDALIASES


**** RESUMING sandbox.cir ****
.probe


.END

WARNING -- Library file C:\Users\mathias\Desktop\PED\LISTA1\sandbox\sandbox.lib has changed since index file sandbox.ind was created.
WARNING -- The timestamp changed from Fri Sep 14 11:01:12 2018 to Fri Sep 14 11:04:41 2018.
Making new index file sandbox.ind for library file sandbox.lib
Index has 1 entries from 1 file(s).

**** 09/14/18 11:04:57 *********** Evaluation PSpice (Nov 1999) **************

 * C:\Users\mathias\Desktop\PED\LISTA1\sandbox\sandbox.sch


 ****     MOSFET MODEL PARAMETERS


******************************************************************************




               MbreakN-X       
               NMOS            
       LEVEL    1            
           L  100.000000E-06 
           W  100.000000E-06 
         VTO    1            
          KP    6.000000E-03 
       GAMMA    0            
         PHI     .6          
      LAMBDA    0            
          IS   10.000000E-15 
          JS    0            
          PB     .8          
        PBSW     .8          
          CJ    0            
        CJSW    0            
        CGSO    0            
        CGDO    0            
        CGBO    0            
         TOX    0            
          XJ    0            
       UCRIT   10.000000E+03 
      DIOMOD    1            
         VFB    0            
        LETA    0            
        WETA    0            
          U0    0            
        TEMP    0            
         VDD    0            
       XPART    0            


**** 09/14/18 11:04:57 *********** Evaluation PSpice (Nov 1999) **************

 * C:\Users\mathias\Desktop\PED\LISTA1\sandbox\sandbox.sch


 ****     SMALL SIGNAL BIAS SOLUTION       TEMPERATURE =   27.000 DEG C


******************************************************************************



 NODE   VOLTAGE     NODE   VOLTAGE     NODE   VOLTAGE     NODE   VOLTAGE


(  Vin)    0.0000  ( Vout)    3.8000  ($N_0001)    5.0000                       

($N_0002)     .6000                   ($N_0003)    1.8000                   




    VOLTAGE SOURCE CURRENTS
    NAME         CURRENT

    V_V1        -1.200E-04
    V_V4         1.200E-04
    V_V2         0.000E+00

    TOTAL POWER DISSIPATION   6.00E-04  WATTS



          JOB CONCLUDED

          TOTAL JOB TIME             .03
