
**** 09/14/18 21:57:05 *********** Evaluation PSpice (Nov 1999) **************

 * C:\Users\mathias\Desktop\PED\LISTA1\sandbox2\Schematic1.sch


 ****     CIRCUIT DESCRIPTION


******************************************************************************




* Schematics Version 9.1 - Web Update 1
* Fri Sep 14 21:57:01 2018



** Analysis setup **
.ac DEC 101 0.1Hz 1GHz
.LIB "C:\Users\mathias\Desktop\PED\LISTA1\sandbox2\Schematic1.lib"


* From [PSPICE NETLIST] section of pspiceev.ini:
.lib "nom.lib"

.INC "Schematic1.net"

**** INCLUDING Schematic1.net ****
* Schematics Netlist *



R_R1         Vin $N_0001  5k  
R_R2         Vout $N_0002  10k  
C_C1         0 Vout  80p  
C_C2         0 $N_0001  25p  
V_V1         $N_0002 0 5V
V_V2         $N_0003 0 1.8V
V_V3         Vin 0 DC 0V AC 1V 
M_M1         Vout $N_0003 $N_0001 0 MbreakN-X           

**** RESUMING Schematic1.cir ****
.INC "Schematic1.als"



**** INCLUDING Schematic1.als ****
* Schematics Aliases *

.ALIASES
R_R1            R1(1=Vin 2=$N_0001 )
R_R2            R2(1=Vout 2=$N_0002 )
C_C1            C1(1=0 2=Vout )
C_C2            C2(1=0 2=$N_0001 )
V_V1            V1(+=$N_0002 -=0 )
V_V2            V2(+=$N_0003 -=0 )
V_V3            V3(+=Vin -=0 )
M_M1            M1(d=Vout g=$N_0003 s=$N_0001 b=0 )
_    _(Vin=Vin)
_    _(Vout=Vout)
.ENDALIASES


**** RESUMING Schematic1.cir ****
.probe


.END

Unable to find index file Schematic1.ind for library file Schematic1.lib
Making new index file Schematic1.ind for library file Schematic1.lib
Index has 1 entries from 1 file(s).

**** 09/14/18 21:57:05 *********** Evaluation PSpice (Nov 1999) **************

 * C:\Users\mathias\Desktop\PED\LISTA1\sandbox2\Schematic1.sch


 ****     MOSFET MODEL PARAMETERS


******************************************************************************




               MbreakN-X       
               NMOS            
       LEVEL    1            
           L  100.000000E-06 
           W  100.000000E-06 
         VTO    1            
          KP    6.000000E-03 
       GAMMA    0            
         PHI     .6          
      LAMBDA    0            
          IS   10.000000E-15 
          JS    0            
          PB     .8          
        PBSW     .8          
          CJ    0            
        CJSW    0            
        CGSO    0            
        CGDO    0            
        CGBO    0            
         TOX    0            
          XJ    0            
       UCRIT   10.000000E+03 
      DIOMOD    1            
         VFB    0            
        LETA    0            
        WETA    0            
          U0    0            
        TEMP    0            
         VDD    0            
       XPART    0            


**** 09/14/18 21:57:05 *********** Evaluation PSpice (Nov 1999) **************

 * C:\Users\mathias\Desktop\PED\LISTA1\sandbox2\Schematic1.sch


 ****     SMALL SIGNAL BIAS SOLUTION       TEMPERATURE =   27.000 DEG C


******************************************************************************



 NODE   VOLTAGE     NODE   VOLTAGE     NODE   VOLTAGE     NODE   VOLTAGE


(  Vin)    0.0000  ( Vout)    3.8000  ($N_0001)     .6000                       

($N_0002)    5.0000                   ($N_0003)    1.8000                   




    VOLTAGE SOURCE CURRENTS
    NAME         CURRENT

    V_V1        -1.200E-04
    V_V2         0.000E+00
    V_V3         1.200E-04

    TOTAL POWER DISSIPATION   6.00E-04  WATTS



          JOB CONCLUDED

          TOTAL JOB TIME             .09
