
**** 08/03/18 16:29:10 *********** Evaluation PSpice (Nov 1999) **************

 * C:\Users\mathias\Desktop\PED\LISTA1\ex2\ex2.sch


 ****     CIRCUIT DESCRIPTION


******************************************************************************




* Schematics Version 9.1 - Web Update 1
* Fri Aug 03 16:29:05 2018



** Analysis setup **
.ac DEC 1000 0.1 1G


* From [PSPICE NETLIST] section of pspiceev.ini:
.lib "nom.lib"

.INC "ex2.net"

**** INCLUDING ex2.net ****
* Schematics Netlist *



R_Rd         0 Vout  10k  
C_Cl         0 Vout  80p  
V_V2         Vin 0 DC 0V AC 1V 
R_Rs         Vin $N_0001  5k  
C_Cin         0 $N_0001  25p  
G_G1         Vout $N_0001 0 $N_0001 4.3e-3
M_M2         Vout_ $N_0002 VS 0 MbreakN           
V_V5         Vin_ 0 DC 0V AC 1V 
R_R3         Vin_ VS  5k  
C_C3         0 VS  25p  
R_R4         Vout_ $N_0003  10k  
V_V3         $N_0003 0 5V
V_V4         $N_0002 0 3V
C_C4         Vout_ 0  80p  

**** RESUMING ex2.cir ****
.INC "ex2.als"



**** INCLUDING ex2.als ****
* Schematics Aliases *

.ALIASES
R_Rd            Rd(1=0 2=Vout )
C_Cl            Cl(1=0 2=Vout )
V_V2            V2(+=Vin -=0 )
R_Rs            Rs(1=Vin 2=$N_0001 )
C_Cin           Cin(1=0 2=$N_0001 )
G_G1            G1(3=Vout 4=$N_0001 1=0 2=$N_0001 )
M_M2            M2(d=Vout_ g=$N_0002 s=VS b=0 )
V_V5            V5(+=Vin_ -=0 )
R_R3            R3(1=Vin_ 2=VS )
C_C3            C3(1=0 2=VS )
R_R4            R4(1=Vout_ 2=$N_0003 )
V_V3            V3(+=$N_0003 -=0 )
V_V4            V4(+=$N_0002 -=0 )
C_C4            C4(1=Vout_ 2=0 )
_    _(Vout=Vout)
_    _(Vin=Vin)
_    _(VS=VS)
_    _(Vout_=Vout_)
_    _(Vin_=Vin_)
.ENDALIASES


**** RESUMING ex2.cir ****
.probe


.END

**** 08/03/18 16:29:10 *********** Evaluation PSpice (Nov 1999) **************

 * C:\Users\mathias\Desktop\PED\LISTA1\ex2\ex2.sch


 ****     MOSFET MODEL PARAMETERS


******************************************************************************




               MbreakN         
               NMOS            
       LEVEL    1            
           L  100.000000E-06 
           W  100.000000E-06 
         VTO    0            
          KP   20.000000E-06 
       GAMMA    0            
         PHI     .6          
      LAMBDA    0            
          IS   10.000000E-15 
          JS    0            
          PB     .8          
        PBSW     .8          
          CJ    0            
        CJSW    0            
        CGSO    0            
        CGDO    0            
        CGBO    0            
         TOX    0            
          XJ    0            
       UCRIT   10.000000E+03 
      DIOMOD    1            
         VFB    0            
        LETA    0            
        WETA    0            
          U0    0            
        TEMP    0            
         VDD    0            
       XPART    0            


**** 08/03/18 16:29:10 *********** Evaluation PSpice (Nov 1999) **************

 * C:\Users\mathias\Desktop\PED\LISTA1\ex2\ex2.sch


 ****     SMALL SIGNAL BIAS SOLUTION       TEMPERATURE =   27.000 DEG C


******************************************************************************



 NODE   VOLTAGE     NODE   VOLTAGE     NODE   VOLTAGE     NODE   VOLTAGE


(   VS)     .3509  (  Vin)    0.0000  ( Vin_)    0.0000  ( Vout)    0.0000      

(Vout_)    4.2982  ($N_0001)    0.0000                   ($N_0002)    3.0000    

($N_0003)    5.0000                   




    VOLTAGE SOURCE CURRENTS
    NAME         CURRENT

    V_V2         0.000E+00
    V_V5         7.018E-05
    V_V3        -7.018E-05
    V_V4         0.000E+00

    TOTAL POWER DISSIPATION   3.51E-04  WATTS



          JOB CONCLUDED

          TOTAL JOB TIME             .31
